date Mon Jan 1 12:00:00.000 am 2024
base hex  timestamps absolute
internal events logged
Begin Triggerblock Mon Jan 1 12:00:00.000 am 2024
   0.000000 Start of measurement
   0.010115 1  100             Tx   d 8 28 16 1E 01 00 00 00 01
   0.010805 2  100             Rx   d 8 28 16 1E 01 00 00 00 01
   0.020115 1  100             Tx   d 8 74 16 1F 02 00 00 00 01
   0.020500 1  1A0             Tx   d 6 03 00 10 00 00 00
   0.020805 2  100             Rx   d 8 74 16 1F 02 00 00 00 01
   0.030115 1  100             Tx   d 8 C0 16 1F 03 00 00 00 01
   0.030805 2  100             Rx   d 8 C0 16 1F 03 00 00 00 01
   0.040115 1  100             Tx   d 8 0C 17 20 04 00 00 00 01
   0.040500 1  1A0             Tx   d 6 06 00 10 00 00 00
   0.040805 2  100             Rx   d 8 0C 17 20 04 00 00 00 01
   0.050115 1  100             Tx   d 8 54 17 20 05 00 00 00 01
   0.050805 2  100             Rx   d 8 54 17 20 05 00 00 00 01
   0.060115 1  100             Tx   d 8 A0 17 21 06 00 00 00 01
   0.060500 1  1A0             Tx   d 6 09 00 10 00 00 00
   0.060805 2  100             Rx   d 8 A0 17 21 06 00 00 00 01
   0.070115 1  100             Tx   d 8 E8 17 22 07 00 00 00 01
   0.070805 2  100             Rx   d 8 E8 17 22 07 00 00 00 01
   0.080115 1  100             Tx   d 8 34 18 22 08 00 00 00 01
   0.080500 1  1A0             Tx   d 6 0C 00 10 00 00 00
   0.080805 2  100             Rx   d 8 34 18 22 08 00 00 00 01
   0.090115 1  100             Tx   d 8 7C 18 23 09 00 00 00 01
   0.090805 2  100             Rx   d 8 7C 18 23 09 00 00 00 01
   0.100115 1  100             Tx   d 8 C4 18 23 0A 00 00 00 01
   0.100400 2  200             Tx   d 2 00 00
   0.100500 1  1A0             Tx   d 6 0F 00 10 00 00 00
   0.100805 2  100             Rx   d 8 C4 18 23 0A 00 00 00 01
   0.101160 1  300             Rx   d 2 00 00
   0.110115 1  100             Tx   d 8 0C 19 24 0B 00 00 00 01
   0.110805 2  100             Rx   d 8 0C 19 24 0B 00 00 00 01
   0.120115 1  100             Tx   d 8 50 19 25 0C 00 00 00 01
   0.120500 1  1A0             Tx   d 6 12 00 10 00 00 00
   0.120805 2  100             Rx   d 8 50 19 25 0C 00 00 00 01
   0.130115 1  100             Tx   d 8 98 19 25 0D 00 00 00 01
   0.130805 2  100             Rx   d 8 98 19 25 0D 00 00 00 01
   0.140115 1  100             Tx   d 8 DC 19 26 0E 00 00 00 01
   0.140500 1  1A0             Tx   d 6 15 00 10 00 00 00
   0.140805 2  100             Rx   d 8 DC 19 26 0E 00 00 00 01
   0.150115 1  100             Tx   d 8 20 1A 26 0F 00 00 00 01
   0.150805 2  100             Rx   d 8 20 1A 26 0F 00 00 00 01
   0.160115 1  100             Tx   d 8 64 1A 27 10 00 00 00 01
   0.160500 1  1A0             Tx   d 6 18 00 10 00 00 00
   0.160805 2  100             Rx   d 8 64 1A 27 10 00 00 00 01
   0.170115 1  100             Tx   d 8 A4 1A 27 11 00 00 00 01
   0.170805 2  100             Rx   d 8 A4 1A 27 11 00 00 00 01
   0.180115 1  100             Tx   d 8 E4 1A 28 12 00 00 00 01
   0.180500 1  1A0             Tx   d 6 1B 00 10 00 00 00
   0.180805 2  100             Rx   d 8 E4 1A 28 12 00 00 00 01
   0.190115 1  100             Tx   d 8 24 1B 28 13 00 00 00 01
   0.190805 2  100             Rx   d 8 24 1B 28 13 00 00 00 01
   0.200115 1  100             Tx   d 8 60 1B 29 14 00 00 00 01
   0.200400 2  200             Tx   d 2 00 00
   0.200500 1  1A0             Tx   d 6 1E 00 10 00 00 00
   0.200805 2  100             Rx   d 8 60 1B 29 14 00 00 00 01
   0.201160 1  300             Rx   d 2 00 00
   0.210115 1  100             Tx   d 8 9C 1B 29 15 00 00 00 01
   0.210805 2  100             Rx   d 8 9C 1B 29 15 00 00 00 01
   0.220115 1  100             Tx   d 8 D8 1B 2A 16 00 00 00 01
   0.220500 1  1A0             Tx   d 6 21 00 10 00 00 00
   0.220805 2  100             Rx   d 8 D8 1B 2A 16 00 00 00 01
   0.230115 1  100             Tx   d 8 10 1C 2A 17 00 00 00 01
   0.230805 2  100             Rx   d 8 10 1C 2A 17 00 00 00 01
   0.240115 1  100             Tx   d 8 48 1C 2B 18 00 00 00 01
   0.240500 1  1A0             Tx   d 6 24 00 10 00 00 00
   0.240805 2  100             Rx   d 8 48 1C 2B 18 00 00 00 01
   0.250115 1  100             Tx   d 8 80 1C 2B 19 00 00 00 01
   0.250805 2  100             Rx   d 8 80 1C 2B 19 00 00 00 01
   0.260115 1  100             Tx   d 8 B4 1C 2C 1A 00 00 00 01
   0.260500 1  1A0             Tx   d 6 27 00 10 00 00 00
   0.260805 2  100             Rx   d 8 B4 1C 2C 1A 00 00 00 01
   0.270115 1  100             Tx   d 8 E8 1C 2C 1B 00 00 00 01
   0.270805 2  100             Rx   d 8 E8 1C 2C 1B 00 00 00 01
   0.280115 1  100             Tx   d 8 18 1D 2C 1C 00 00 00 01
   0.280500 1  1A0             Tx   d 6 2A 00 10 00 00 00
   0.280805 2  100             Rx   d 8 18 1D 2C 1C 00 00 00 01
   0.290115 1  100             Tx   d 8 48 1D 2D 1D 00 00 00 01
   0.290805 2  100             Rx   d 8 48 1D 2D 1D 00 00 00 01
   0.300115 1  100             Tx   d 8 74 1D 2D 1E 00 00 00 01
   0.300400 2  200             Tx   d 2 00 00
   0.300500 1  1A0             Tx   d 6 2D 00 10 00 00 00
   0.300805 2  100             Rx   d 8 74 1D 2D 1E 00 00 00 01
   0.301160 1  300             Rx   d 2 00 00
   0.310115 1  100             Tx   d 8 A0 1D 2E 1F 00 00 00 01
   0.310805 2  100             Rx   d 8 A0 1D 2E 1F 00 00 00 01
   0.320115 1  100             Tx   d 8 C8 1D 2E 20 00 00 00 01
   0.320500 1  1A0             Tx   d 6 30 00 10 00 00 00
   0.320805 2  100             Rx   d 8 C8 1D 2E 20 00 00 00 01
   0.330115 1  100             Tx   d 8 F0 1D 2E 21 00 00 00 01
   0.330805 2  100             Rx   d 8 F0 1D 2E 21 00 00 00 01
   0.340115 1  100             Tx   d 8 14 1E 2F 22 00 00 00 01
   0.340500 1  1A0             Tx   d 6 33 00 10 00 00 00
   0.340805 2  100             Rx   d 8 14 1E 2F 22 00 00 00 01
   0.350115 1  100             Tx   d 8 38 1E 2F 23 00 00 00 01
   0.350805 2  100             Rx   d 8 38 1E 2F 23 00 00 00 01
   0.360115 1  100             Tx   d 8 58 1E 2F 24 00 00 00 01
   0.360500 1  1A0             Tx   d 6 36 00 10 00 00 00
   0.360805 2  100             Rx   d 8 58 1E 2F 24 00 00 00 01
   0.370115 1  100             Tx   d 8 78 1E 2F 25 00 00 00 01
   0.370805 2  100             Rx   d 8 78 1E 2F 25 00 00 00 01
   0.380115 1  100             Tx   d 8 94 1E 30 26 00 00 00 01
   0.380500 1  1A0             Tx   d 6 39 00 10 00 00 00
   0.380805 2  100             Rx   d 8 94 1E 30 26 00 00 00 01
   0.390115 1  100             Tx   d 8 B0 1E 30 27 00 00 00 01
   0.390805 2  100             Rx   d 8 B0 1E 30 27 00 00 00 01
   0.400115 1  100             Tx   d 8 C8 1E 30 28 00 00 00 01
   0.400400 2  200             Tx   d 2 00 00
   0.400500 1  1A0             Tx   d 6 3C 00 10 00 00 00
   0.400805 2  100             Rx   d 8 C8 1E 30 28 00 00 00 01
   0.401160 1  300             Rx   d 2 00 00
   0.410115 1  100             Tx   d 8 E0 1E 30 29 00 00 00 01
   0.410805 2  100             Rx   d 8 E0 1E 30 29 00 00 00 01
   0.420115 1  100             Tx   d 8 F4 1E 31 2A 00 00 00 01
   0.420500 1  1A0             Tx   d 6 3F 00 10 00 00 00
   0.420805 2  100             Rx   d 8 F4 1E 31 2A 00 00 00 01
   0.430115 1  100             Tx   d 8 04 1F 31 2B 00 00 00 01
   0.430805 2  100             Rx   d 8 04 1F 31 2B 00 00 00 01
   0.440115 1  100             Tx   d 8 14 1F 31 2C 00 00 00 01
   0.440500 1  1A0             Tx   d 6 42 00 10 00 00 00
   0.440805 2  100             Rx   d 8 14 1F 31 2C 00 00 00 01
   0.450115 1  100             Tx   d 8 20 1F 31 2D 00 00 00 01
   0.450805 2  100             Rx   d 8 20 1F 31 2D 00 00 00 01
   0.460115 1  100             Tx   d 8 2C 1F 31 2E 00 00 00 01
   0.460500 1  1A0             Tx   d 6 45 00 10 00 00 00
   0.460805 2  100             Rx   d 8 2C 1F 31 2E 00 00 00 01
   0.470115 1  100             Tx   d 8 34 1F 31 2F 00 00 00 01
   0.470805 2  100             Rx   d 8 34 1F 31 2F 00 00 00 01
   0.480115 1  100             Tx   d 8 38 1F 31 30 00 00 00 01
   0.480500 1  1A0             Tx   d 6 48 00 10 00 00 00
   0.480805 2  100             Rx   d 8 38 1F 31 30 00 00 00 01
   0.490115 1  100             Tx   d 8 3C 1F 31 31 00 00 00 01
   0.490805 2  100             Rx   d 8 3C 1F 31 31 00 00 00 01
   0.500115 1  100             Tx   d 8 40 1F 31 32 00 00 00 01
   0.500400 2  200             Tx   d 2 00 00
   0.500500 1  1A0             Tx   d 6 4B 00 10 00 00 00
   0.500805 2  100             Rx   d 8 40 1F 31 32 00 00 00 01
   0.501160 1  300             Rx   d 2 00 00
   0.510115 1  100             Tx   d 8 3C 1F 31 33 00 00 00 01
   0.510805 2  100             Rx   d 8 3C 1F 31 33 00 00 00 01
   0.520115 1  100             Tx   d 8 38 1F 31 34 00 00 00 01
   0.520500 1  1A0             Tx   d 6 4E 00 10 00 00 00
   0.520805 2  100             Rx   d 8 38 1F 31 34 00 00 00 01
   0.530115 1  100             Tx   d 8 34 1F 31 35 00 00 00 01
   0.530805 2  100             Rx   d 8 34 1F 31 35 00 00 00 01
   0.540115 1  100             Tx   d 8 2C 1F 31 36 00 00 00 01
   0.540500 1  1A0             Tx   d 6 51 00 10 00 00 00
   0.540805 2  100             Rx   d 8 2C 1F 31 36 00 00 00 01
   0.550115 1  100             Tx   d 8 20 1F 31 37 00 00 00 01
   0.550805 2  100             Rx   d 8 20 1F 31 37 00 00 00 01
   0.560115 1  100             Tx   d 8 14 1F 31 38 00 00 00 01
   0.560500 1  1A0             Tx   d 6 54 00 10 00 00 00
   0.560805 2  100             Rx   d 8 14 1F 31 38 00 00 00 01
   0.570115 1  100             Tx   d 8 04 1F 31 39 00 00 00 01
   0.570805 2  100             Rx   d 8 04 1F 31 39 00 00 00 01
   0.580115 1  100             Tx   d 8 F4 1E 31 3A 00 00 00 01
   0.580500 1  1A0             Tx   d 6 57 00 10 00 00 00
   0.580805 2  100             Rx   d 8 F4 1E 31 3A 00 00 00 01
   0.590115 1  100             Tx   d 8 E0 1E 31 3B 00 00 00 01
   0.590805 2  100             Rx   d 8 E0 1E 31 3B 00 00 00 01
   0.600115 1  100             Tx   d 8 C8 1E 31 3C 00 00 00 01
   0.600400 2  200             Tx   d 2 01 00
   0.600500 1  1A0             Tx   d 6 5A 00 10 00 00 00
   0.600805 2  100             Rx   d 8 C8 1E 31 3C 00 00 00 01
   0.601160 1  300             Rx   d 2 01 00
   0.610115 1  100             Tx   d 8 B0 1E 31 3D 00 00 00 01
   0.610805 2  100             Rx   d 8 B0 1E 31 3D 00 00 00 01
   0.620115 1  100             Tx   d 8 94 1E 31 3E 00 00 00 01
   0.620500 1  1A0             Tx   d 6 5D 00 10 00 00 00
   0.620805 2  100             Rx   d 8 94 1E 31 3E 00 00 00 01
   0.630115 1  100             Tx   d 8 78 1E 30 3F 00 00 00 01
   0.630805 2  100             Rx   d 8 78 1E 30 3F 00 00 00 01
   0.640115 1  100             Tx   d 8 58 1E 30 40 00 00 00 01
   0.640500 1  1A0             Tx   d 6 60 00 10 00 00 00
   0.640805 2  100             Rx   d 8 58 1E 30 40 00 00 00 01
   0.650115 1  100             Tx   d 8 38 1E 30 41 00 00 00 01
   0.650805 2  100             Rx   d 8 38 1E 30 41 00 00 00 01
   0.660115 1  100             Tx   d 8 14 1E 30 42 00 00 00 01
   0.660500 1  1A0             Tx   d 6 63 00 10 00 00 00
   0.660805 2  100             Rx   d 8 14 1E 30 42 00 00 00 01
   0.670115 1  100             Tx   d 8 F0 1D 30 43 00 00 00 01
   0.670805 2  100             Rx   d 8 F0 1D 30 43 00 00 00 01
   0.680115 1  100             Tx   d 8 C8 1D 2F 44 00 00 00 01
   0.680500 1  1A0             Tx   d 6 66 00 10 00 00 00
   0.680805 2  100             Rx   d 8 C8 1D 2F 44 00 00 00 01
   0.690115 1  100             Tx   d 8 A0 1D 2F 45 00 00 00 01
   0.690805 2  100             Rx   d 8 A0 1D 2F 45 00 00 00 01
   0.700115 1  100             Tx   d 8 74 1D 2F 46 00 00 00 01
   0.700400 2  200             Tx   d 2 01 00
   0.700500 1  1A0             Tx   d 6 69 00 10 00 00 00
   0.700805 2  100             Rx   d 8 74 1D 2F 46 00 00 00 01
   0.701160 1  300             Rx   d 2 01 00
   0.710115 1  100             Tx   d 8 48 1D 2E 47 00 00 00 01
   0.710805 2  100             Rx   d 8 48 1D 2E 47 00 00 00 01
   0.720115 1  100             Tx   d 8 18 1D 2E 48 00 00 00 01
   0.720500 1  1A0             Tx   d 6 6C 00 10 00 00 00
   0.720805 2  100             Rx   d 8 18 1D 2E 48 00 00 00 01
   0.730115 1  100             Tx   d 8 E8 1C 2E 49 00 00 00 01
   0.730805 2  100             Rx   d 8 E8 1C 2E 49 00 00 00 01
   0.740115 1  100             Tx   d 8 B4 1C 2D 4A 00 00 00 01
   0.740500 1  1A0             Tx   d 6 6F 00 10 00 00 00
   0.740805 2  100             Rx   d 8 B4 1C 2D 4A 00 00 00 01
   0.750115 1  100             Tx   d 8 80 1C 2D 4B 00 00 00 01
   0.750805 2  100             Rx   d 8 80 1C 2D 4B 00 00 00 01
   0.760115 1  100             Tx   d 8 48 1C 2D 4C 00 00 00 01
   0.760500 1  1A0             Tx   d 6 72 00 10 00 00 00
   0.760805 2  100             Rx   d 8 48 1C 2D 4C 00 00 00 01
   0.770115 1  100             Tx   d 8 10 1C 2C 4D 00 00 00 01
   0.770805 2  100             Rx   d 8 10 1C 2C 4D 00 00 00 01
   0.780115 1  100             Tx   d 8 D8 1B 2C 4E 00 00 00 01
   0.780500 1  1A0             Tx   d 6 75 00 10 00 00 00
   0.780805 2  100             Rx   d 8 D8 1B 2C 4E 00 00 00 01
   0.790115 1  100             Tx   d 8 9C 1B 2B 4F 00 00 00 01
   0.790805 2  100             Rx   d 8 9C 1B 2B 4F 00 00 00 01
   0.800115 1  100             Tx   d 8 60 1B 2B 50 00 00 00 01
   0.800400 2  200             Tx   d 2 01 00
   0.800500 1  1A0             Tx   d 6 78 00 10 00 00 00
   0.800805 2  100             Rx   d 8 60 1B 2B 50 00 00 00 01
   0.801160 1  300             Rx   d 2 01 00
   0.810115 1  100             Tx   d 8 24 1B 2B 51 00 00 00 01
   0.810805 2  100             Rx   d 8 24 1B 2B 51 00 00 00 01
   0.820115 1  100             Tx   d 8 E4 1A 2A 52 00 00 00 01
   0.820500 1  1A0             Tx   d 6 7B 00 10 00 00 00
   0.820805 2  100             Rx   d 8 E4 1A 2A 52 00 00 00 01
   0.830115 1  100             Tx   d 8 A4 1A 2A 53 00 00 00 01
   0.830805 2  100             Rx   d 8 A4 1A 2A 53 00 00 00 01
   0.840115 1  100             Tx   d 8 64 1A 29 54 00 00 00 01
   0.840500 1  1A0             Tx   d 6 7E 00 10 00 00 00
   0.840805 2  100             Rx   d 8 64 1A 29 54 00 00 00 01
   0.850115 1  100             Tx   d 8 20 1A 29 55 00 00 00 01
   0.850805 2  100             Rx   d 8 20 1A 29 55 00 00 00 01
   0.860115 1  100             Tx   d 8 DC 19 28 56 00 00 00 01
   0.860500 1  1A0             Tx   d 6 81 00 10 00 00 00
   0.860805 2  100             Rx   d 8 DC 19 28 56 00 00 00 01
   0.870115 1  100             Tx   d 8 98 19 28 57 00 00 00 01
   0.870805 2  100             Rx   d 8 98 19 28 57 00 00 00 01
   0.880115 1  100             Tx   d 8 50 19 27 58 00 00 00 01
   0.880500 1  1A0             Tx   d 6 84 00 10 00 00 00
   0.880805 2  100             Rx   d 8 50 19 27 58 00 00 00 01
   0.890115 1  100             Tx   d 8 0C 19 27 59 00 00 00 01
   0.890805 2  100             Rx   d 8 0C 19 27 59 00 00 00 01
   0.900115 1  100             Tx   d 8 C4 18 26 5A 00 00 00 01
   0.900400 2  200             Tx   d 2 01 00
   0.900500 1  1A0             Tx   d 6 87 00 10 00 00 00
   0.900805 2  100             Rx   d 8 C4 18 26 5A 00 00 00 01
   0.901160 1  300             Rx   d 2 01 00
   0.910115 1  100             Tx   d 8 7C 18 26 5B 00 00 00 01
   0.910805 2  100             Rx   d 8 7C 18 26 5B 00 00 00 01
   0.920115 1  100             Tx   d 8 34 18 25 5C 00 00 00 01
   0.920500 1  1A0             Tx   d 6 8A 00 10 00 00 00
   0.920805 2  100             Rx   d 8 34 18 25 5C 00 00 00 01
   0.930115 1  100             Tx   d 8 E8 17 24 5D 00 00 00 01
   0.930805 2  100             Rx   d 8 E8 17 24 5D 00 00 00 01
   0.940115 1  100             Tx   d 8 A0 17 24 5E 00 00 00 01
   0.940500 1  1A0             Tx   d 6 8D 00 10 00 00 00
   0.940805 2  100             Rx   d 8 A0 17 24 5E 00 00 00 01
   0.950115 1  100             Tx   d 8 54 17 23 5F 00 00 00 01
   0.950805 2  100             Rx   d 8 54 17 23 5F 00 00 00 01
   0.960115 1  100             Tx   d 8 0C 17 23 60 00 00 00 01
   0.960500 1  1A0             Tx   d 6 90 00 10 00 00 00
   0.960805 2  100             Rx   d 8 0C 17 23 60 00 00 00 01
   0.970115 1  100             Tx   d 8 C0 16 22 61 00 00 00 01
   0.970805 2  100             Rx   d 8 C0 16 22 61 00 00 00 01
   0.980115 1  100             Tx   d 8 74 16 22 62 00 00 00 01
   0.980500 1  1A0             Tx   d 6 93 00 10 00 00 00
   0.980805 2  100             Rx   d 8 74 16 22 62 00 00 00 01
   0.990115 1  100             Tx   d 8 28 16 21 63 00 00 00 01
   0.990805 2  100             Rx   d 8 28 16 21 63 00 00 00 01
   1.000115 1  100             Tx   d 8 E0 15 20 64 00 00 00 01
   1.000400 2  200             Tx   d 2 01 00
   1.000500 1  1A0             Tx   d 6 96 00 10 00 00 00
   1.000805 2  100             Rx   d 8 E0 15 20 64 00 00 00 01
   1.001160 1  300             Rx   d 2 01 00
   1.010115 1  100             Tx   d 8 94 15 20 65 00 00 00 01
   1.010805 2  100             Rx   d 8 94 15 20 65 00 00 00 01
   1.020115 1  100             Tx   d 8 48 15 1F 66 00 00 00 01
   1.020500 1  1A0             Tx   d 6 99 00 10 00 00 00
   1.020805 2  100             Rx   d 8 48 15 1F 66 00 00 00 01
   1.030115 1  100             Tx   d 8 FC 14 1F 67 00 00 00 01
   1.030805 2  100             Rx   d 8 FC 14 1F 67 00 00 00 01
   1.040115 1  100             Tx   d 8 B0 14 1E 68 00 00 00 01
   1.040500 1  1A0             Tx   d 6 9C 00 10 00 00 00
   1.040805 2  100             Rx   d 8 B0 14 1E 68 00 00 00 01
   1.050115 1  100             Tx   d 8 68 14 1D 69 00 00 00 01
   1.050805 2  100             Rx   d 8 68 14 1D 69 00 00 00 01
   1.060115 1  100             Tx   d 8 1C 14 1D 6A 00 00 00 01
   1.060500 1  1A0             Tx   d 6 9F 00 10 00 00 00
   1.060805 2  100             Rx   d 8 1C 14 1D 6A 00 00 00 01
   1.070115 1  100             Tx   d 8 D4 13 1C 6B 00 00 00 01
   1.070805 2  100             Rx   d 8 D4 13 1C 6B 00 00 00 01
   1.080115 1  100             Tx   d 8 88 13 1C 6C 00 00 00 01
   1.080500 1  1A0             Tx   d 6 A2 00 10 00 00 00
   1.080805 2  100             Rx   d 8 88 13 1C 6C 00 00 00 01
   1.090115 1  100             Tx   d 8 40 13 1B 6D 00 00 00 01
   1.090805 2  100             Rx   d 8 40 13 1B 6D 00 00 00 01
   1.100115 1  100             Tx   d 8 F8 12 1A 6E 00 00 00 01
   1.100400 2  200             Tx   d 2 01 00
   1.100500 1  1A0             Tx   d 6 A5 00 10 00 00 00
   1.100805 2  100             Rx   d 8 F8 12 1A 6E 00 00 00 01
   1.101160 1  300             Rx   d 2 01 00
   1.110115 1  100             Tx   d 8 B0 12 1A 6F 00 00 00 01
   1.110805 2  100             Rx   d 8 B0 12 1A 6F 00 00 00 01
   1.120115 1  100             Tx   d 8 6C 12 19 70 00 00 00 01
   1.120500 1  1A0             Tx   d 6 A8 00 10 00 00 00
   1.120805 2  100             Rx   d 8 6C 12 19 70 00 00 00 01
   1.130115 1  100             Tx   d 8 24 12 19 71 00 00 00 01
   1.130805 2  100             Rx   d 8 24 12 19 71 00 00 00 01
   1.140115 1  100             Tx   d 8 E0 11 18 72 00 00 00 01
   1.140500 1  1A0             Tx   d 6 AB 00 10 00 00 00
   1.140805 2  100             Rx   d 8 E0 11 18 72 00 00 00 01
   1.150115 1  100             Tx   d 8 9C 11 17 73 00 00 00 01
   1.150805 2  100             Rx   d 8 9C 11 17 73 00 00 00 01
   1.160115 1  100             Tx   d 8 58 11 17 74 00 00 00 01
   1.160500 1  1A0             Tx   d 6 AE 00 10 00 00 00
   1.160805 2  100             Rx   d 8 58 11 17 74 00 00 00 01
   1.170115 1  100             Tx   d 8 18 11 16 75 00 00 00 01
   1.170805 2  100             Rx   d 8 18 11 16 75 00 00 00 01
   1.180115 1  100             Tx   d 8 D8 10 16 76 00 00 00 01
   1.180500 1  1A0             Tx   d 6 B1 00 10 00 00 00
   1.180805 2  100             Rx   d 8 D8 10 16 76 00 00 00 01
   1.190115 1  100             Tx   d 8 98 10 15 77 00 00 00 01
   1.190805 2  100             Rx   d 8 98 10 15 77 00 00 00 01
   1.200115 1  100             Tx   d 8 5C 10 15 78 00 00 00 01
   1.200400 2  200             Tx   d 2 01 00
   1.200500 1  1A0             Tx   d 6 B4 00 10 00 00 00
   1.200805 2  100             Rx   d 8 5C 10 15 78 00 00 00 01
   1.201160 1  300             Rx   d 2 01 00
   1.210115 1  100             Tx   d 8 20 10 14 79 00 00 00 01
   1.210805 2  100             Rx   d 8 20 10 14 79 00 00 00 01
   1.220115 1  100             Tx   d 8 E4 0F 14 7A 00 00 00 01
   1.220500 1  1A0             Tx   d 6 B7 00 10 00 00 00
   1.220805 2  100             Rx   d 8 E4 0F 14 7A 00 00 00 01
   1.230115 1  100             Tx   d 8 AC 0F 13 7B 00 00 00 01
   1.230805 2  100             Rx   d 8 AC 0F 13 7B 00 00 00 01
   1.240115 1  100             Tx   d 8 74 0F 13 7C 00 00 00 01
   1.240500 1  1A0             Tx   d 6 BA 00 10 00 00 00
   1.240805 2  100             Rx   d 8 74 0F 13 7C 00 00 00 01
   1.250115 1  100             Tx   d 8 3C 0F 12 7D 00 00 00 01
   1.250805 2  100             Rx   d 8 3C 0F 12 7D 00 00 00 01
   1.260115 1  100             Tx   d 8 08 0F 12 7E 00 00 00 01
   1.260500 1  1A0             Tx   d 6 BD 00 10 00 00 00
   1.260805 2  100             Rx   d 8 08 0F 12 7E 00 00 00 01
   1.270115 1  100             Tx   d 8 D4 0E 11 7F 00 00 00 01
   1.270805 2  100             Rx   d 8 D4 0E 11 7F 00 00 00 01
   1.280115 1  100             Tx   d 8 A4 0E 11 80 00 00 00 01
   1.280500 1  1A0             Tx   d 6 C0 00 10 00 00 00
   1.280805 2  100             Rx   d 8 A4 0E 11 80 00 00 00 01
   1.290115 1  100             Tx   d 8 74 0E 10 81 00 00 00 01
   1.290805 2  100             Rx   d 8 74 0E 10 81 00 00 00 01
   1.300115 1  100             Tx   d 8 48 0E 10 82 00 00 00 01
   1.300400 2  200             Tx   d 2 00 00
   1.300500 1  1A0             Tx   d 6 C3 00 10 00 00 00
   1.300805 2  100             Rx   d 8 48 0E 10 82 00 00 00 01
   1.301160 1  300             Rx   d 2 00 00
   1.310115 1  100             Tx   d 8 1C 0E 0F 83 00 00 00 01
   1.310805 2  100             Rx   d 8 1C 0E 0F 83 00 00 00 01
   1.320115 1  100             Tx   d 8 F4 0D 0F 84 00 00 00 01
   1.320500 1  1A0             Tx   d 6 C6 00 10 00 00 00
   1.320805 2  100             Rx   d 8 F4 0D 0F 84 00 00 00 01
   1.330115 1  100             Tx   d 8 CC 0D 0E 85 00 00 00 01
   1.330805 2  100             Rx   d 8 CC 0D 0E 85 00 00 00 01
   1.340115 1  100             Tx   d 8 A8 0D 0E 86 00 00 00 01
   1.340500 1  1A0             Tx   d 6 C9 00 10 00 00 00
   1.340805 2  100             Rx   d 8 A8 0D 0E 86 00 00 00 01
   1.350115 1  100             Tx   d 8 84 0D 0E 87 00 00 00 01
   1.350805 2  100             Rx   d 8 84 0D 0E 87 00 00 00 01
   1.360115 1  100             Tx   d 8 64 0D 0D 88 00 00 00 01
   1.360500 1  1A0             Tx   d 6 CC 00 10 00 00 00
   1.360805 2  100             Rx   d 8 64 0D 0D 88 00 00 00 01
   1.370115 1  100             Tx   d 8 44 0D 0D 89 00 00 00 01
   1.370805 2  100             Rx   d 8 44 0D 0D 89 00 00 00 01
   1.380115 1  100             Tx   d 8 28 0D 0D 8A 00 00 00 01
   1.380500 1  1A0             Tx   d 6 CF 00 10 00 00 00
   1.380805 2  100             Rx   d 8 28 0D 0D 8A 00 00 00 01
   1.390115 1  100             Tx   d 8 0C 0D 0C 8B 00 00 00 01
   1.390805 2  100             Rx   d 8 0C 0D 0C 8B 00 00 00 01
   1.400115 1  100             Tx   d 8 F4 0C 0C 8C 00 00 00 01
   1.400400 2  200             Tx   d 2 00 00
   1.400500 1  1A0             Tx   d 6 D2 00 10 00 00 00
   1.400805 2  100             Rx   d 8 F4 0C 0C 8C 00 00 00 01
   1.401160 1  300             Rx   d 2 00 00
   1.410115 1  100             Tx   d 8 DC 0C 0C 8D 00 00 00 01
   1.410805 2  100             Rx   d 8 DC 0C 0C 8D 00 00 00 01
   1.420115 1  100             Tx   d 8 C8 0C 0C 8E 00 00 00 01
   1.420500 1  1A0             Tx   d 6 D5 00 10 00 00 00
   1.420805 2  100             Rx   d 8 C8 0C 0C 8E 00 00 00 01
   1.430115 1  100             Tx   d 8 B8 0C 0B 8F 00 00 00 01
   1.430805 2  100             Rx   d 8 B8 0C 0B 8F 00 00 00 01
   1.440115 1  100             Tx   d 8 A8 0C 0B 90 00 00 00 01
   1.440500 1  1A0             Tx   d 6 D8 00 10 00 00 00
   1.440805 2  100             Rx   d 8 A8 0C 0B 90 00 00 00 01
   1.450115 1  100             Tx   d 8 9C 0C 0B 91 00 00 00 01
   1.450805 2  100             Rx   d 8 9C 0C 0B 91 00 00 00 01
   1.460115 1  100             Tx   d 8 90 0C 0B 92 00 00 00 01
   1.460500 1  1A0             Tx   d 6 DB 00 10 00 00 00
   1.460805 2  100             Rx   d 8 90 0C 0B 92 00 00 00 01
   1.470115 1  100             Tx   d 8 88 0C 0A 93 00 00 00 01
   1.470805 2  100             Rx   d 8 88 0C 0A 93 00 00 00 01
   1.480115 1  100             Tx   d 8 84 0C 0A 94 00 00 00 01
   1.480500 1  1A0             Tx   d 6 DE 00 10 00 00 00
   1.480805 2  100             Rx   d 8 84 0C 0A 94 00 00 00 01
   1.490115 1  100             Tx   d 8 80 0C 0A 95 00 00 00 01
   1.490805 2  100             Rx   d 8 80 0C 0A 95 00 00 00 01
   1.500115 1  100             Tx   d 8 80 0C 0A 96 00 00 00 01
   1.500400 2  200             Tx   d 2 00 00
   1.500500 1  1A0             Tx   d 6 E1 00 10 00 00 00
   1.500805 2  100             Rx   d 8 80 0C 0A 96 00 00 00 01
   1.501160 1  300             Rx   d 2 00 00
   1.510115 1  100             Tx   d 8 80 0C 0A 97 00 00 00 01
   1.510805 2  100             Rx   d 8 80 0C 0A 97 00 00 00 01
   1.520115 1  100             Tx   d 8 84 0C 0A 98 00 00 00 01
   1.520500 1  1A0             Tx   d 6 E4 00 10 00 00 00
   1.520805 2  100             Rx   d 8 84 0C 0A 98 00 00 00 01
   1.530115 1  100             Tx   d 8 88 0C 0A 99 00 00 00 01
   1.530805 2  100             Rx   d 8 88 0C 0A 99 00 00 00 01
   1.540115 1  100             Tx   d 8 90 0C 0A 9A 00 00 00 01
   1.540500 1  1A0             Tx   d 6 E7 00 10 00 00 00
   1.540805 2  100             Rx   d 8 90 0C 0A 9A 00 00 00 01
   1.550115 1  100             Tx   d 8 9C 0C 0A 9B 00 00 00 01
   1.550805 2  100             Rx   d 8 9C 0C 0A 9B 00 00 00 01
   1.560115 1  100             Tx   d 8 A8 0C 0A 9C 00 00 00 01
   1.560500 1  1A0             Tx   d 6 EA 00 10 00 00 00
   1.560805 2  100             Rx   d 8 A8 0C 0A 9C 00 00 00 01
   1.570115 1  100             Tx   d 8 B8 0C 0A 9D 00 00 00 01
   1.570805 2  100             Rx   d 8 B8 0C 0A 9D 00 00 00 01
   1.580115 1  100             Tx   d 8 C8 0C 0A 9E 00 00 00 01
   1.580500 1  1A0             Tx   d 6 ED 00 10 00 00 00
   1.580805 2  100             Rx   d 8 C8 0C 0A 9E 00 00 00 01
   1.590115 1  100             Tx   d 8 DC 0C 0A 9F 00 00 00 01
   1.590805 2  100             Rx   d 8 DC 0C 0A 9F 00 00 00 01
   1.600115 1  100             Tx   d 8 F4 0C 0A A0 00 00 00 01
   1.600400 2  200             Tx   d 2 00 00
   1.600500 1  1A0             Tx   d 6 F0 00 10 00 00 00
   1.600805 2  100             Rx   d 8 F4 0C 0A A0 00 00 00 01
   1.601160 1  300             Rx   d 2 00 00
   1.610115 1  100             Tx   d 8 0C 0D 0A A1 00 00 00 01
   1.610805 2  100             Rx   d 8 0C 0D 0A A1 00 00 00 01
   1.620115 1  100             Tx   d 8 28 0D 0A A2 00 00 00 01
   1.620500 1  1A0             Tx   d 6 F3 00 10 00 00 00
   1.620805 2  100             Rx   d 8 28 0D 0A A2 00 00 00 01
   1.630115 1  100             Tx   d 8 44 0D 0A A3 00 00 00 01
   1.630805 2  100             Rx   d 8 44 0D 0A A3 00 00 00 01
   1.640115 1  100             Tx   d 8 64 0D 0A A4 00 00 00 01
   1.640500 1  1A0             Tx   d 6 F6 00 10 00 00 00
   1.640805 2  100             Rx   d 8 64 0D 0A A4 00 00 00 01
   1.650115 1  100             Tx   d 8 84 0D 0A A5 00 00 00 01
   1.650805 2  100             Rx   d 8 84 0D 0A A5 00 00 00 01
   1.660115 1  100             Tx   d 8 A8 0D 0A A6 00 00 00 01
   1.660500 1  1A0             Tx   d 6 F9 00 10 00 00 00
   1.660805 2  100             Rx   d 8 A8 0D 0A A6 00 00 00 01
   1.670115 1  100             Tx   d 8 CC 0D 0A A7 00 00 00 01
   1.670805 2  100             Rx   d 8 CC 0D 0A A7 00 00 00 01
   1.680115 1  100             Tx   d 8 F4 0D 0B A8 00 00 00 01
   1.680500 1  1A0             Tx   d 6 FC 00 10 00 00 00
   1.680805 2  100             Rx   d 8 F4 0D 0B A8 00 00 00 01
   1.690115 1  100             Tx   d 8 1C 0E 0B A9 00 00 00 01
   1.690805 2  100             Rx   d 8 1C 0E 0B A9 00 00 00 01
   1.700115 1  100             Tx   d 8 48 0E 0B AA 00 00 00 01
   1.700400 2  200             Tx   d 2 00 00
   1.700500 1  1A0             Tx   d 6 FF 00 10 00 00 00
   1.700805 2  100             Rx   d 8 48 0E 0B AA 00 00 00 01
   1.701160 1  300             Rx   d 2 00 00
   1.710115 1  100             Tx   d 8 74 0E 0B AB 00 00 00 01
   1.710805 2  100             Rx   d 8 74 0E 0B AB 00 00 00 01
   1.720115 1  100             Tx   d 8 A4 0E 0B AC 00 00 00 01
   1.720500 1  1A0             Tx   d 6 02 00 10 00 00 00
   1.720805 2  100             Rx   d 8 A4 0E 0B AC 00 00 00 01
   1.730115 1  100             Tx   d 8 D4 0E 0C AD 00 00 00 01
   1.730805 2  100             Rx   d 8 D4 0E 0C AD 00 00 00 01
   1.740115 1  100             Tx   d 8 08 0F 0C AE 00 00 00 01
   1.740500 1  1A0             Tx   d 6 05 00 10 00 00 00
   1.740805 2  100             Rx   d 8 08 0F 0C AE 00 00 00 01
   1.750115 1  100             Tx   d 8 3C 0F 0C AF 00 00 00 01
   1.750805 2  100             Rx   d 8 3C 0F 0C AF 00 00 00 01
   1.760115 1  100             Tx   d 8 74 0F 0D B0 00 00 00 01
   1.760500 1  1A0             Tx   d 6 08 00 10 00 00 00
   1.760805 2  100             Rx   d 8 74 0F 0D B0 00 00 00 01
   1.770115 1  100             Tx   d 8 AC 0F 0D B1 00 00 00 01
   1.770805 2  100             Rx   d 8 AC 0F 0D B1 00 00 00 01
   1.780115 1  100             Tx   d 8 E4 0F 0D B2 00 00 00 01
   1.780500 1  1A0             Tx   d 6 0B 00 10 00 00 00
   1.780805 2  100             Rx   d 8 E4 0F 0D B2 00 00 00 01
   1.790115 1  100             Tx   d 8 20 10 0E B3 00 00 00 01
   1.790805 2  100             Rx   d 8 20 10 0E B3 00 00 00 01
   1.800115 1  100             Tx   d 8 5C 10 0E B4 00 00 00 01
   1.800400 2  200             Tx   d 2 00 00
   1.800500 1  1A0             Tx   d 6 0E 00 10 00 00 00
   1.800805 2  100             Rx   d 8 5C 10 0E B4 00 00 00 01
   1.801160 1  300             Rx   d 2 00 00
   1.810115 1  100             Tx   d 8 98 10 0E B5 00 00 00 01
   1.810805 2  100             Rx   d 8 98 10 0E B5 00 00 00 01
   1.820115 1  100             Tx   d 8 D8 10 0F B6 00 00 00 01
   1.820500 1  1A0             Tx   d 6 11 00 10 00 00 00
   1.820805 2  100             Rx   d 8 D8 10 0F B6 00 00 00 01
   1.830115 1  100             Tx   d 8 18 11 0F B7 00 00 00 01
   1.830805 2  100             Rx   d 8 18 11 0F B7 00 00 00 01
   1.840115 1  100             Tx   d 8 58 11 10 B8 00 00 00 01
   1.840500 1  1A0             Tx   d 6 14 00 10 00 00 00
   1.840805 2  100             Rx   d 8 58 11 10 B8 00 00 00 01
   1.850115 1  100             Tx   d 8 9C 11 10 B9 00 00 00 01
   1.850805 2  100             Rx   d 8 9C 11 10 B9 00 00 00 01
   1.860115 1  100             Tx   d 8 E0 11 11 BA 00 00 00 01
   1.860500 1  1A0             Tx   d 6 17 00 10 00 00 00
   1.860805 2  100             Rx   d 8 E0 11 11 BA 00 00 00 01
   1.870115 1  100             Tx   d 8 24 12 11 BB 00 00 00 01
   1.870805 2  100             Rx   d 8 24 12 11 BB 00 00 00 01
   1.880115 1  100             Tx   d 8 6C 12 12 BC 00 00 00 01
   1.880500 1  1A0             Tx   d 6 1A 00 10 00 00 00
   1.880805 2  100             Rx   d 8 6C 12 12 BC 00 00 00 01
   1.890115 1  100             Tx   d 8 B0 12 12 BD 00 00 00 01
   1.890805 2  100             Rx   d 8 B0 12 12 BD 00 00 00 01
   1.900115 1  100             Tx   d 8 F8 12 12 BE 00 00 00 01
   1.900400 2  200             Tx   d 2 00 00
   1.900500 1  1A0             Tx   d 6 1D 00 10 00 00 00
   1.900805 2  100             Rx   d 8 F8 12 12 BE 00 00 00 01
   1.901160 1  300             Rx   d 2 00 00
   1.910115 1  100             Tx   d 8 40 13 13 BF 00 00 00 01
   1.910805 2  100             Rx   d 8 40 13 13 BF 00 00 00 01
   1.920115 1  100             Tx   d 8 88 13 14 C0 00 00 00 01
   1.920500 1  1A0             Tx   d 6 20 00 10 00 00 00
   1.920805 2  100             Rx   d 8 88 13 14 C0 00 00 00 01
   1.930115 1  100             Tx   d 8 D4 13 14 C1 00 00 00 01
   1.930805 2  100             Rx   d 8 D4 13 14 C1 00 00 00 01
   1.940115 1  100             Tx   d 8 1C 14 15 C2 00 00 00 01
   1.940500 1  1A0             Tx   d 6 23 00 10 00 00 00
   1.940805 2  100             Rx   d 8 1C 14 15 C2 00 00 00 01
   1.950115 1  100             Tx   d 8 68 14 15 C3 00 00 00 01
   1.950805 2  100             Rx   d 8 68 14 15 C3 00 00 00 01
   1.960115 1  100             Tx   d 8 B0 14 16 C4 00 00 00 01
   1.960500 1  1A0             Tx   d 6 26 00 10 00 00 00
   1.960805 2  100             Rx   d 8 B0 14 16 C4 00 00 00 01
   1.970115 1  100             Tx   d 8 FC 14 16 C5 00 00 00 01
   1.970805 2  100             Rx   d 8 FC 14 16 C5 00 00 00 01
   1.980115 1  100             Tx   d 8 48 15 17 C6 00 00 00 01
   1.980500 1  1A0             Tx   d 6 29 00 10 00 00 00
   1.980805 2  100             Rx   d 8 48 15 17 C6 00 00 00 01
   1.990115 1  100             Tx   d 8 94 15 17 C7 00 00 00 01
   1.990805 2  100             Rx   d 8 94 15 17 C7 00 00 00 01
End TriggerBlock
